
T29A4 000:558 SEGGER J-Link V4.88 Log File (0078ms, 0344ms total)
T29A4 000:558 DLL Compiled: Jul 15 2014 08:50:40 (0078ms, 0344ms total)
T29A4 000:558 Logging started @ 2017-06-03 10:14 (0078ms, 0344ms total)
T29A4 000:636 JLINK_SetWarnOutHandler(...) (0000ms, 0344ms total)
T29A4 000:636 JLINK_OpenEx(...)
Firmware: J-Link ARM-OB STM32 compiled Aug 22 2012 19:52:04
Hardware: V7.00
S/N: 20161007
Feature(s): RDI,FlashDL,FlashBP,JFlash,GDBFull  returns O.K. (0265ms, 0609ms total)
T29A4 000:901 JLINK_SetErrorOutHandler(...) (0000ms, 0609ms total)
T29A4 000:901 JLINK_ExecCommand("ProjectFile = "E:\タカラモノ\ROBOCON武大机器人队\F4板子和工程\摄像头驱动及循线\小车程序\三代车-蓝场-机构定点-正常跑车程序\三代车-蓝场\RVMDSK\V1\Project\JLinkSettings.ini"", ...)  returns 0x00 (0011ms, 0620ms total)
T29A4 000:924 JLINK_ExecCommand("Device = STM32F407ZG", ...)Device "STM32F407ZG" selected (1024 KB flash, 128 KB RAM).  returns 0x00 (0011ms, 0631ms total)
T29A4 000:935 JLINK_ExecCommand("DisableConnectionTimeout", ...)  returns 0x01 (0000ms, 0631ms total)
T29A4 000:935 JLINK_GetHardwareVersion()  returns 0x11170 (0000ms, 0631ms total)
T29A4 000:935 JLINK_GetDLLVersion()  returns 48800 (0000ms, 0631ms total)
T29A4 000:935 JLINK_GetFirmwareString(...) (0000ms, 0631ms total)
T29A4 000:951 JLINK_GetDLLVersion()  returns 48800 (0000ms, 0631ms total)
T29A4 000:951 JLINK_GetCompileDateTime() (0000ms, 0631ms total)
T29A4 000:955 JLINK_GetFirmwareString(...) (0000ms, 0631ms total)
T29A4 000:960 JLINK_GetHardwareVersion()  returns 0x11170 (0000ms, 0631ms total)
T29A4 000:979 JLINK_TIF_Select(JLINKARM_TIF_SWD)  returns 0x00 (0000ms, 0631ms total)
T29A4 000:979 JLINK_SetSpeed(500) (0000ms, 0631ms total)
T29A4 000:979 JLINK_GetId() >0x108 TIF>Found SWD-DP with ID 0x2BA01477 >0x0D TIF> >0x28 TIF> >0x0D TIF> >0x28 TIF> >0x0D TIF> >0x21 TIF> >0x0D TIF> >0x28 TIF> >0x0D TIF> >0x28 TIF> >0x0D TIF> >0x28 TIF> >0x0D TIF> >0x21 TIF> >0x0D TIF> >0x21 TIF> >0x0D TIF> >0x28 TIF> >0x0D TIF> >0x21 TIF> >0x0D TIF> >0x21 TIF> >0x0D TIF> >0x28 TIF> >0x0D TIF> >0x28 TIF> >0x0D TIF> >0x28 TIF> >0x0D TIF> >0x21 TIF> >0x0D TIF> >0x21 TIF> >0x0D TIF> >0x28 TIF> >0x0D TIF> >0x28 TIF> >0x108 TIF>Found SWD-DP with ID 0x2BA01477
 >0x0D TIF> >0x21 TIF> >0x0D TIF> >0x28 TIF> >0x0D TIF> >0x28 TIF> >0x0D TIF> >0x21 TIF> >0x0D TIF> >0x28 TIF> >0x0D TIF> >0x21 TIF> >0x0D TIF> >0x21 TIF> >0x0D TIF> >0x21 TIF> >0x0D TIF> >0x21 TIF> >0x0D TIF> >0x28 TIF> >0x0D TIF> >0x28 TIF> >0x0D TIF> >0x21 TIF> >0x0D TIF> >0x28 TIF> >0x0D TIF> >0x28 TIF> >0x0D TIF> >0x28 TIF> >0x0D TIF> >0x21 TIF> >0x0D TIF> >0x21 TIF> >0x0D TIF> >0x28 TIF> >0x0D TIF> >0x21 TIF> >0x0D TIF> >0x21 TIF>Found Cortex-M4 r0p1, Little endian.
 -- CPU_WriteMem(4 bytes @ 0xE0002000) -- CPU_ReadMem(4 bytes @ 0xE000EDF0) -- CPU_WriteMem(4 bytes @ 0xE000EDF0) -- CPU_ReadMem(4 bytes @ 0xE0002000)FPUnit: 6 code (BP) slots and 2 literal slots -- CPU_ReadMem(4 bytes @ 0xE000EDFC) -- CPU_WriteMem(4 bytes @ 0xE000EDFC) -- CPU_ReadMem(4 bytes @ 0xE0001000) -- CPU_WriteMem(4 bytes @ 0xE0001000) -- CPU_ReadMem(4 bytes @ 0xE00FF010)TPIU fitted. -- CPU_ReadMem(4 bytes @ 0xE00FF014)ETM fitted. -- CPU_ReadMem(4 bytes @ 0xE00FF018) >0x0D TIF> >0x21 TIF>
  returns 0x2BA01477 (0057ms, 0688ms total)
T29A4 001:036 JLINK_GetDeviceFamily()  returns 14 (0000ms, 0688ms total)
T29A4 001:039 JLINK_ReadMem (0xE00FFFF0, 0x0010 Bytes, ...) -- CPU is running -- CPU_ReadMem(16 bytes @ 0xE00FFFF0) - Data: 0D 00 00 00 10 00 00 00 05 00 00 00 B1 00 00 00  returns 0x00 (0002ms, 0690ms total)
T29A4 001:041 JLINK_ReadMem (0xE00FFFD0, 0x0020 Bytes, ...) -- CPU is running -- CPU_ReadMem(32 bytes @ 0xE00FFFD0) - Data: 00 00 00 00 00 00 00 00 00 00 00 00 00 00 00 00 ...  returns 0x00 (0003ms, 0693ms total)
T29A4 001:044 JLINK_ReadMem (0xE00FF000, 0x0018 Bytes, ...) -- CPU is running -- CPU_ReadMem(24 bytes @ 0xE00FF000) - Data: 03 F0 F0 FF 03 20 F0 FF 03 30 F0 FF 03 10 F0 FF ...  returns 0x00 (0002ms, 0695ms total)
T29A4 001:046 JLINK_ReadMemU32(0xE000ED00, 0x0001 Items, ...) -- CPU is running -- CPU_ReadMem(4 bytes @ 0xE000ED00) - Data: 41 C2 0F 41  returns 0x01 (0001ms, 0696ms total)
T29A4 001:047 JLINK_ReadMemU32(0xE000EF40, 0x0001 Items, ...) -- CPU is running -- CPU_ReadMem(4 bytes @ 0xE000EF40) - Data: 21 00 11 10  returns 0x01 (0002ms, 0698ms total)
T29A4 001:049 JLINK_ReadMemU32(0xE000EF44, 0x0001 Items, ...) -- CPU is running -- CPU_ReadMem(4 bytes @ 0xE000EF44) - Data: 11 00 00 11  returns 0x01 (0001ms, 0699ms total)
T29A4 001:050 JLINK_SetResetType(JLINKARM_RESET_TYPE_NORMAL)  returns JLINKARM_RESET_TYPE_NORMAL (0000ms, 0699ms total)
T29A4 001:050 JLINK_Reset() -- CPU is running -- CPU_WriteMem(4 bytes @ 0xE000EDF0) -- CPU is running -- CPU_WriteMem(4 bytes @ 0xE000EDFC) >0x35 TIF> -- CPU is running -- CPU_WriteMem(4 bytes @ 0xE000ED0C) -- CPU is running -- CPU_ReadMem(4 bytes @ 0xE000EDF0) -- CPU is running -- CPU_ReadMem(4 bytes @ 0xE000EDF0) -- CPU is running -- CPU_WriteMem(4 bytes @ 0xE000EDF0) -- CPU is running -- CPU_WriteMem(4 bytes @ 0xE000EDFC) -- CPU is running -- CPU_ReadMem(4 bytes @ 0xE000EDF0)
 -- CPU_WriteMem(4 bytes @ 0xE0002000) -- CPU_ReadMem(4 bytes @ 0xE000EDFC) -- CPU_ReadMem(4 bytes @ 0xE0001000) (0034ms, 0733ms total)
T29A4 001:084 JLINK_Halt()  returns 0x00 (0000ms, 0733ms total)
T29A4 001:084 JLINK_IsHalted()  returns TRUE (0000ms, 0733ms total)
T29A4 001:084 JLINK_ReadMemU32(0xE000EDF0, 0x0001 Items, ...) -- CPU_ReadMem(4 bytes @ 0xE000EDF0) - Data: 03 00 03 00  returns 0x01 (0001ms, 0734ms total)
T29A4 001:085 JLINK_WriteU32(0xE000EDF0, 0xA05F0003) -- CPU_WriteMem(4 bytes @ 0xE000EDF0)  returns 0x00 (0001ms, 0735ms total)
T29A4 001:086 JLINK_WriteU32(0xE000EDFC, 0x01000000) -- CPU_WriteMem(4 bytes @ 0xE000EDFC)  returns 0x00 (0002ms, 0737ms total)
T29A4 001:102 JLINK_GetHWStatus(...)  returns 0x00 (0000ms, 0737ms total)
T29A4 001:114 JLINK_GetNumBPUnits(Type = 0xFFFFFF00)  returns 0x06 (0000ms, 0737ms total)
T29A4 001:114 JLINK_GetNumBPUnits(Type = 0xF0)  returns 0x2000 (0000ms, 0737ms total)
T29A4 001:114 JLINK_GetNumWPUnits()  returns 0x04 (0000ms, 0737ms total)
T29A4 001:126 JLINK_GetSpeed()  returns 0x1F4 (0000ms, 0737ms total)
T29A4 001:131 JLINK_ReadMemU32(0xE000E004, 0x0001 Items, ...) -- CPU_ReadMem(4 bytes @ 0xE000E004) - Data: 02 00 00 00  returns 0x01 (0001ms, 0738ms total)
T29A4 001:132 JLINK_ReadMemU32(0xE000E004, 0x0001 Items, ...) -- CPU_ReadMem(4 bytes @ 0xE000E004) - Data: 02 00 00 00  returns 0x01 (0002ms, 0740ms total)
T29A4 001:134 JLINK_WriteMem(0xE0001000, 0x001C Bytes, ...) - Data: 01 00 00 00 00 00 00 00 00 00 00 00 00 00 00 00 ... -- CPU_WriteMem(28 bytes @ 0xE0001000)  returns 0x1C (0002ms, 0742ms total)
T29A4 001:136 JLINK_ReadMem (0xE0001000, 0x001C Bytes, ...) -- CPU_ReadMem(28 bytes @ 0xE0001000) - Data: 01 00 00 40 00 00 00 00 00 00 00 00 00 00 00 00 ...  returns 0x00 (0002ms, 0744ms total)
T29A4 001:138 JLINK_Halt()  returns 0x00 (0000ms, 0744ms total)
T29A4 001:138 JLINK_IsHalted()  returns TRUE (0000ms, 0744ms total)
T29A4 001:143 JLINK_WriteMem(0x20000000, 0x0180 Bytes, ...) - Data: 00 BE 0A E0 0D 78 2D 06 68 40 08 24 40 00 00 D3 ... -- CPU_WriteMem(384 bytes @ 0x20000000)  returns 0x180 (0018ms, 0762ms total)
T29A4 001:161 JLINK_WriteReg(R0, 0x08000000)  returns 0x00 (0000ms, 0762ms total)
T29A4 001:161 JLINK_WriteReg(R1, 0x00B71B00)  returns 0x00 (0000ms, 0762ms total)
T29A4 001:161 JLINK_WriteReg(R2, 0x00000001)  returns 0x00 (0000ms, 0762ms total)
T29A4 001:161 JLINK_WriteReg(R3, 0x00000000)  returns 0x00 (0000ms, 0762ms total)
T29A4 001:161 JLINK_WriteReg(R4, 0x00000000)  returns 0x00 (0000ms, 0762ms total)
T29A4 001:161 JLINK_WriteReg(R5, 0x00000000)  returns 0x00 (0000ms, 0762ms total)
T29A4 001:161 JLINK_WriteReg(R6, 0x00000000)  returns 0x00 (0000ms, 0762ms total)
T29A4 001:161 JLINK_WriteReg(R7, 0x00000000)  returns 0x00 (0000ms, 0762ms total)
T29A4 001:161 JLINK_WriteReg(R8, 0x00000000)  returns 0x00 (0001ms, 0763ms total)
T29A4 001:162 JLINK_WriteReg(R9, 0x2000017C)  returns 0x00 (0000ms, 0763ms total)
T29A4 001:162 JLINK_WriteReg(R10, 0x00000000)  returns 0x00 (0000ms, 0763ms total)
T29A4 001:162 JLINK_WriteReg(R11, 0x00000000)  returns 0x00 (0000ms, 0763ms total)
T29A4 001:162 JLINK_WriteReg(R12, 0x00000000)  returns 0x00 (0000ms, 0763ms total)
T29A4 001:162 JLINK_WriteReg(R13 (SP), 0x20001000)  returns 0x00 (0000ms, 0763ms total)
T29A4 001:162 JLINK_WriteReg(R14, 0x20000001)  returns 0x00 (0000ms, 0763ms total)
T29A4 001:162 JLINK_WriteReg(R15 (PC), 0x20000054)  returns 0x00 (0000ms, 0763ms total)
T29A4 001:162 JLINK_WriteReg(XPSR, 0x01000000)  returns 0x00 (0000ms, 0763ms total)
T29A4 001:162 JLINK_WriteReg(MSP, 0x20001000)  returns 0x00 (0000ms, 0763ms total)
T29A4 001:162 JLINK_WriteReg(PSP, 0x20001000)  returns 0x00 (0000ms, 0763ms total)
T29A4 001:162 JLINK_WriteReg(CFBP, 0x00000000)  returns 0x00 (0000ms, 0763ms total)
T29A4 001:162 JLINK_SetBPEx(Addr = 0x20000000, Type = 0xFFFFFFF2) -- CPU_ReadMem(2 bytes @ 0x20000000)  returns 0x00000001 (0001ms, 0764ms total)
T29A4 001:163 JLINK_Go() -- CPU_WriteMem(2 bytes @ 0x20000000) -- CPU_WriteMem(4 bytes @ 0xE0002008) -- CPU_WriteMem(4 bytes @ 0xE000200C) -- CPU_WriteMem(4 bytes @ 0xE0002010) -- CPU_WriteMem(4 bytes @ 0xE0002014) -- CPU_WriteMem(4 bytes @ 0xE0002018) -- CPU_WriteMem(4 bytes @ 0xE000201C) -- CPU_WriteMem(4 bytes @ 0xE0001004) (0016ms, 0780ms total)
T29A4 001:179 JLINK_IsHalted() -- CPU_ReadMem(2 bytes @ 0x20000000)  returns TRUE (0013ms, 0793ms total)
T29A4 001:192 JLINK_ReadReg(R15 (PC))  returns 0x20000000 (0000ms, 0780ms total)
T29A4 001:192 JLINK_ClrBPEx(BPHandle = 0x00000001)  returns 0x00 (0000ms, 0780ms total)
T29A4 001:192 JLINK_ReadReg(R0)  returns 0x00000000 (0000ms, 0780ms total)
T29A4 001:193 JLINK_WriteReg(R0, 0x08000000)  returns 0x00 (0000ms, 0780ms total)
T29A4 001:193 JLINK_WriteReg(R1, 0x00004000)  returns 0x00 (0000ms, 0780ms total)
T29A4 001:193 JLINK_WriteReg(R2, 0x000000FF)  returns 0x00 (0000ms, 0780ms total)
T29A4 001:193 JLINK_WriteReg(R3, 0x00000000)  returns 0x00 (0000ms, 0780ms total)
T29A4 001:193 JLINK_WriteReg(R4, 0x00000000)  returns 0x00 (0000ms, 0780ms total)
T29A4 001:193 JLINK_WriteReg(R5, 0x00000000)  returns 0x00 (0000ms, 0780ms total)
T29A4 001:193 JLINK_WriteReg(R6, 0x00000000)  returns 0x00 (0000ms, 0780ms total)
T29A4 001:193 JLINK_WriteReg(R7, 0x00000000)  returns 0x00 (0000ms, 0780ms total)
T29A4 001:193 JLINK_WriteReg(R8, 0x00000000)  returns 0x00 (0000ms, 0780ms total)
T29A4 001:193 JLINK_WriteReg(R9, 0x2000017C)  returns 0x00 (0000ms, 0780ms total)
T29A4 001:193 JLINK_WriteReg(R10, 0x00000000)  returns 0x00 (0000ms, 0780ms total)
T29A4 001:193 JLINK_WriteReg(R11, 0x00000000)  returns 0x00 (0000ms, 0780ms total)
T29A4 001:193 JLINK_WriteReg(R12, 0x00000000)  returns 0x00 (0000ms, 0780ms total)
T29A4 001:194 JLINK_WriteReg(R13 (SP), 0x20001000)  returns 0x00 (0000ms, 0780ms total)
T29A4 001:194 JLINK_WriteReg(R14, 0x20000001)  returns 0x00 (0000ms, 0780ms total)
T29A4 001:194 JLINK_WriteReg(R15 (PC), 0x20000020)  returns 0x00 (0000ms, 0780ms total)
T29A4 001:194 JLINK_WriteReg(XPSR, 0x01000000)  returns 0x00 (0000ms, 0780ms total)
T29A4 001:194 JLINK_WriteReg(MSP, 0x20001000)  returns 0x00 (0000ms, 0780ms total)
T29A4 001:194 JLINK_WriteReg(PSP, 0x20001000)  returns 0x00 (0000ms, 0780ms total)
T29A4 001:194 JLINK_WriteReg(CFBP, 0x00000000)  returns 0x00 (0000ms, 0780ms total)
T29A4 001:194 JLINK_SetBPEx(Addr = 0x20000000, Type = 0xFFFFFFF2)  returns 0x00000002 (0000ms, 0780ms total)
T29A4 001:194 JLINK_Go() (0005ms, 0785ms total)
T29A4 001:199 JLINK_IsHalted() -- CPU_ReadMem(2 bytes @ 0x20000000)  returns TRUE (0012ms, 0797ms total)
T29A4 001:211 JLINK_ReadReg(R15 (PC))  returns 0x20000000 (0000ms, 0785ms total)
T29A4 001:211 JLINK_ClrBPEx(BPHandle = 0x00000002)  returns 0x00 (0000ms, 0785ms total)
T29A4 001:211 JLINK_ReadReg(R0)  returns 0x00000001 (0000ms, 0785ms total)
T29A4 001:211 JLINK_WriteReg(R0, 0x08000000)  returns 0x00 (0000ms, 0785ms total)
T29A4 001:211 JLINK_WriteReg(R1, 0x00004000)  returns 0x00 (0001ms, 0786ms total)
T29A4 001:212 JLINK_WriteReg(R2, 0x000000FF)  returns 0x00 (0000ms, 0786ms total)
T29A4 001:212 JLINK_WriteReg(R3, 0x00000000)  returns 0x00 (0000ms, 0786ms total)
T29A4 001:212 JLINK_WriteReg(R4, 0x00000000)  returns 0x00 (0000ms, 0786ms total)
T29A4 001:212 JLINK_WriteReg(R5, 0x00000000)  returns 0x00 (0000ms, 0786ms total)
T29A4 001:212 JLINK_WriteReg(R6, 0x00000000)  returns 0x00 (0000ms, 0786ms total)
T29A4 001:212 JLINK_WriteReg(R7, 0x00000000)  returns 0x00 (0000ms, 0786ms total)
T29A4 001:212 JLINK_WriteReg(R8, 0x00000000)  returns 0x00 (0000ms, 0786ms total)
T29A4 001:212 JLINK_WriteReg(R9, 0x2000017C)  returns 0x00 (0000ms, 0786ms total)
T29A4 001:212 JLINK_WriteReg(R10, 0x00000000)  returns 0x00 (0000ms, 0786ms total)
T29A4 001:212 JLINK_WriteReg(R11, 0x00000000)  returns 0x00 (0000ms, 0786ms total)
T29A4 001:212 JLINK_WriteReg(R12, 0x00000000)  returns 0x00 (0000ms, 0786ms total)
T29A4 001:212 JLINK_WriteReg(R13 (SP), 0x20001000)  returns 0x00 (0000ms, 0786ms total)
T29A4 001:212 JLINK_WriteReg(R14, 0x20000001)  returns 0x00 (0000ms, 0786ms total)
T29A4 001:212 JLINK_WriteReg(R15 (PC), 0x200000BC)  returns 0x00 (0000ms, 0786ms total)
T29A4 001:212 JLINK_WriteReg(XPSR, 0x01000000)  returns 0x00 (0001ms, 0787ms total)
T29A4 001:213 JLINK_WriteReg(MSP, 0x20001000)  returns 0x00 (0000ms, 0787ms total)
T29A4 001:213 JLINK_WriteReg(PSP, 0x20001000)  returns 0x00 (0000ms, 0787ms total)
T29A4 001:213 JLINK_WriteReg(CFBP, 0x00000000)  returns 0x00 (0000ms, 0787ms total)
T29A4 001:213 JLINK_SetBPEx(Addr = 0x20000000, Type = 0xFFFFFFF2)  returns 0x00000003 (0000ms, 0787ms total)
T29A4 001:213 JLINK_Go() (0004ms, 0791ms total)
T29A4 001:217 JLINK_IsHalted()  returns FALSE (0001ms, 0792ms total)
T29A4 001:322 JLINK_IsHalted()  returns FALSE (0001ms, 0792ms total)
T29A4 001:325 JLINK_IsHalted()  returns FALSE (0001ms, 0792ms total)
T29A4 001:334 JLINK_IsHalted()  returns FALSE (0001ms, 0792ms total)
T29A4 001:336 JLINK_IsHalted()  returns FALSE (0001ms, 0792ms total)
T29A4 001:339 JLINK_IsHalted()  returns FALSE (0001ms, 0792ms total)
T29A4 001:349 JLINK_IsHalted()  returns FALSE (0001ms, 0792ms total)
T29A4 001:352 JLINK_IsHalted()  returns FALSE (0001ms, 0792ms total)
T29A4 001:354 JLINK_IsHalted()  returns FALSE (0001ms, 0792ms total)
T29A4 001:370 JLINK_IsHalted()  returns FALSE (0001ms, 0792ms total)
T29A4 001:381 JLINK_IsHalted()  returns FALSE (0001ms, 0792ms total)
T29A4 001:383 JLINK_IsHalted()  returns FALSE (0001ms, 0792ms total)
T29A4 001:389 JLINK_IsHalted()  returns FALSE (0001ms, 0792ms total)
T29A4 001:391 JLINK_IsHalted()  returns FALSE (0001ms, 0792ms total)
T29A4 001:394 JLINK_IsHalted()  returns FALSE (0001ms, 0792ms total)
T29A4 001:397 JLINK_IsHalted()  returns FALSE (0001ms, 0792ms total)
T29A4 001:399 JLINK_IsHalted()  returns FALSE (0001ms, 0792ms total)
T29A4 001:408 JLINK_IsHalted()  returns FALSE (0001ms, 0792ms total)
T29A4 001:410 JLINK_IsHalted()  returns FALSE (0001ms, 0792ms total)
T29A4 001:413 JLINK_IsHalted()  returns FALSE (0001ms, 0792ms total)
T29A4 001:415 JLINK_IsHalted()  returns FALSE (0001ms, 0792ms total)
T29A4 001:423 JLINK_IsHalted()  returns FALSE (0001ms, 0792ms total)
T29A4 001:426 JLINK_IsHalted()  returns FALSE (0001ms, 0792ms total)
T29A4 001:429 JLINK_IsHalted()  returns FALSE (0001ms, 0792ms total)
T29A4 001:439 JLINK_IsHalted()  returns FALSE (0001ms, 0792ms total)
T29A4 001:442 JLINK_IsHalted()  returns FALSE (0001ms, 0792ms total)
T29A4 001:444 JLINK_IsHalted()  returns FALSE (0001ms, 0792ms total)
T29A4 001:447 JLINK_IsHalted()  returns FALSE (0001ms, 0792ms total)
T29A4 001:454 JLINK_IsHalted()  returns FALSE (0001ms, 0792ms total)
T29A4 001:457 JLINK_IsHalted()  returns FALSE (0001ms, 0792ms total)
T29A4 001:459 JLINK_IsHalted()  returns FALSE (0001ms, 0792ms total)
T29A4 001:462 JLINK_IsHalted()  returns FALSE (0001ms, 0792ms total)
T29A4 001:464 JLINK_IsHalted()  returns FALSE (0001ms, 0792ms total)
T29A4 001:486 JLINK_IsHalted()  returns FALSE (0001ms, 0792ms total)
T29A4 001:489 JLINK_IsHalted()  returns FALSE (0001ms, 0792ms total)
T29A4 001:491 JLINK_IsHalted()  returns FALSE (0001ms, 0792ms total)
T29A4 001:494 JLINK_IsHalted()  returns FALSE (0001ms, 0792ms total)
T29A4 001:499 JLINK_IsHalted()  returns FALSE (0001ms, 0792ms total)
T29A4 001:502 JLINK_IsHalted()  returns FALSE (0001ms, 0792ms total)
T29A4 001:504 JLINK_IsHalted()  returns FALSE (0001ms, 0792ms total)
T29A4 001:507 JLINK_IsHalted()  returns FALSE (0001ms, 0792ms total)
T29A4 001:514 JLINK_IsHalted()  returns FALSE (0001ms, 0792ms total)
T29A4 001:516 JLINK_IsHalted()  returns FALSE (0001ms, 0792ms total)
T29A4 001:519 JLINK_IsHalted()  returns FALSE (0001ms, 0792ms total)
T29A4 001:521 JLINK_IsHalted()  returns FALSE (0001ms, 0792ms total)
T29A4 001:524 JLINK_IsHalted()  returns FALSE (0001ms, 0792ms total)
T29A4 001:533 JLINK_IsHalted()  returns FALSE (0001ms, 0792ms total)
T29A4 001:536 JLINK_IsHalted()  returns FALSE (0001ms, 0792ms total)
T29A4 001:538 JLINK_IsHalted()  returns FALSE (0001ms, 0792ms total)
T29A4 001:541 JLINK_IsHalted()  returns FALSE (0001ms, 0792ms total)
T29A4 001:550 JLINK_IsHalted()  returns FALSE (0001ms, 0792ms total)
T29A4 001:553 JLINK_IsHalted() -- CPU_ReadMem(2 bytes @ 0x20000000)  returns TRUE (0012ms, 0803ms total)
T29A4 001:565 JLINK_ReadReg(R15 (PC))  returns 0x20000000 (0000ms, 0791ms total)
T29A4 001:565 JLINK_ClrBPEx(BPHandle = 0x00000003)  returns 0x00 (0000ms, 0791ms total)
T29A4 001:565 JLINK_ReadReg(R0)  returns 0x00000000 (0000ms, 0791ms total)
T29A4 001:566 JLINK_WriteReg(R0, 0x08004000)  returns 0x00 (0000ms, 0791ms total)
T29A4 001:566 JLINK_WriteReg(R1, 0x00004000)  returns 0x00 (0000ms, 0791ms total)
T29A4 001:566 JLINK_WriteReg(R2, 0x000000FF)  returns 0x00 (0000ms, 0791ms total)
T29A4 001:566 JLINK_WriteReg(R3, 0x00000000)  returns 0x00 (0000ms, 0791ms total)
T29A4 001:566 JLINK_WriteReg(R4, 0x00000000)  returns 0x00 (0000ms, 0791ms total)
T29A4 001:566 JLINK_WriteReg(R5, 0x00000000)  returns 0x00 (0000ms, 0791ms total)
T29A4 001:566 JLINK_WriteReg(R6, 0x00000000)  returns 0x00 (0000ms, 0791ms total)
T29A4 001:566 JLINK_WriteReg(R7, 0x00000000)  returns 0x00 (0000ms, 0791ms total)
T29A4 001:566 JLINK_WriteReg(R8, 0x00000000)  returns 0x00 (0000ms, 0791ms total)
T29A4 001:566 JLINK_WriteReg(R9, 0x2000017C)  returns 0x00 (0000ms, 0791ms total)
T29A4 001:566 JLINK_WriteReg(R10, 0x00000000)  returns 0x00 (0000ms, 0791ms total)
T29A4 001:566 JLINK_WriteReg(R11, 0x00000000)  returns 0x00 (0000ms, 0791ms total)
T29A4 001:566 JLINK_WriteReg(R12, 0x00000000)  returns 0x00 (0000ms, 0791ms total)
T29A4 001:566 JLINK_WriteReg(R13 (SP), 0x20001000)  returns 0x00 (0000ms, 0791ms total)
T29A4 001:566 JLINK_WriteReg(R14, 0x20000001)  returns 0x00 (0000ms, 0791ms total)
T29A4 001:566 JLINK_WriteReg(R15 (PC), 0x20000020)  returns 0x00 (0000ms, 0791ms total)
T29A4 001:566 JLINK_WriteReg(XPSR, 0x01000000)  returns 0x00 (0000ms, 0791ms total)
T29A4 001:566 JLINK_WriteReg(MSP, 0x20001000)  returns 0x00 (0000ms, 0791ms total)
T29A4 001:566 JLINK_WriteReg(PSP, 0x20001000)  returns 0x00 (0000ms, 0791ms total)
T29A4 001:566 JLINK_WriteReg(CFBP, 0x00000000)  returns 0x00 (0000ms, 0791ms total)
T29A4 001:567 JLINK_SetBPEx(Addr = 0x20000000, Type = 0xFFFFFFF2)  returns 0x00000004 (0000ms, 0791ms total)
T29A4 001:567 JLINK_Go() (0005ms, 0796ms total)
T29A4 001:572 JLINK_IsHalted() -- CPU_ReadMem(2 bytes @ 0x20000000)  returns TRUE (0012ms, 0808ms total)
T29A4 001:584 JLINK_ReadReg(R15 (PC))  returns 0x20000000 (0000ms, 0796ms total)
T29A4 001:584 JLINK_ClrBPEx(BPHandle = 0x00000004)  returns 0x00 (0000ms, 0796ms total)
T29A4 001:585 JLINK_ReadReg(R0)  returns 0x00000001 (0000ms, 0797ms total)
T29A4 001:585 JLINK_WriteReg(R0, 0x08004000)  returns 0x00 (0000ms, 0797ms total)
T29A4 001:585 JLINK_WriteReg(R1, 0x00004000)  returns 0x00 (0000ms, 0797ms total)
T29A4 001:585 JLINK_WriteReg(R2, 0x000000FF)  returns 0x00 (0000ms, 0797ms total)
T29A4 001:585 JLINK_WriteReg(R3, 0x00000000)  returns 0x00 (0000ms, 0797ms total)
T29A4 001:585 JLINK_WriteReg(R4, 0x00000000)  returns 0x00 (0000ms, 0797ms total)
T29A4 001:585 JLINK_WriteReg(R5, 0x00000000)  returns 0x00 (0000ms, 0797ms total)
T29A4 001:585 JLINK_WriteReg(R6, 0x00000000)  returns 0x00 (0000ms, 0797ms total)
T29A4 001:585 JLINK_WriteReg(R7, 0x00000000)  returns 0x00 (0000ms, 0797ms total)
T29A4 001:585 JLINK_WriteReg(R8, 0x00000000)  returns 0x00 (0000ms, 0797ms total)
T29A4 001:585 JLINK_WriteReg(R9, 0x2000017C)  returns 0x00 (0000ms, 0797ms total)
T29A4 001:585 JLINK_WriteReg(R10, 0x00000000)  returns 0x00 (0000ms, 0797ms total)
T29A4 001:585 JLINK_WriteReg(R11, 0x00000000)  returns 0x00 (0000ms, 0797ms total)
T29A4 001:585 JLINK_WriteReg(R12, 0x00000000)  returns 0x00 (0000ms, 0797ms total)
T29A4 001:585 JLINK_WriteReg(R13 (SP), 0x20001000)  returns 0x00 (0000ms, 0797ms total)
T29A4 001:585 JLINK_WriteReg(R14, 0x20000001)  returns 0x00 (0000ms, 0797ms total)
T29A4 001:585 JLINK_WriteReg(R15 (PC), 0x200000BC)  returns 0x00 (0000ms, 0797ms total)
T29A4 001:585 JLINK_WriteReg(XPSR, 0x01000000)  returns 0x00 (0000ms, 0797ms total)
T29A4 001:585 JLINK_WriteReg(MSP, 0x20001000)  returns 0x00 (0000ms, 0797ms total)
T29A4 001:585 JLINK_WriteReg(PSP, 0x20001000)  returns 0x00 (0001ms, 0798ms total)
T29A4 001:586 JLINK_WriteReg(CFBP, 0x00000000)  returns 0x00 (0000ms, 0798ms total)
T29A4 001:586 JLINK_SetBPEx(Addr = 0x20000000, Type = 0xFFFFFFF2)  returns 0x00000005 (0000ms, 0798ms total)
T29A4 001:586 JLINK_Go() (0004ms, 0802ms total)
T29A4 001:590 JLINK_IsHalted()  returns FALSE (0002ms, 0804ms total)
T29A4 001:626 JLINK_IsHalted()  returns FALSE (0001ms, 0803ms total)
T29A4 001:629 JLINK_IsHalted()  returns FALSE (0001ms, 0803ms total)
T29A4 001:632 JLINK_IsHalted()  returns FALSE (0001ms, 0803ms total)
T29A4 001:634 JLINK_IsHalted()  returns FALSE (0001ms, 0803ms total)
T29A4 001:642 JLINK_IsHalted()  returns FALSE (0001ms, 0803ms total)
T29A4 001:645 JLINK_IsHalted()  returns FALSE (0001ms, 0803ms total)
T29A4 001:648 JLINK_IsHalted()  returns FALSE (0001ms, 0803ms total)
T29A4 001:658 JLINK_IsHalted()  returns FALSE (0001ms, 0803ms total)
T29A4 001:661 JLINK_IsHalted()  returns FALSE (0001ms, 0803ms total)
T29A4 001:664 JLINK_IsHalted()  returns FALSE (0001ms, 0803ms total)
T29A4 001:667 JLINK_IsHalted()  returns FALSE (0001ms, 0803ms total)
T29A4 001:674 JLINK_IsHalted()  returns FALSE (0001ms, 0803ms total)
T29A4 001:677 JLINK_IsHalted()  returns FALSE (0001ms, 0803ms total)
T29A4 001:680 JLINK_IsHalted()  returns FALSE (0001ms, 0803ms total)
T29A4 001:683 JLINK_IsHalted()  returns FALSE (0001ms, 0803ms total)
T29A4 001:698 JLINK_IsHalted()  returns FALSE (0001ms, 0803ms total)
T29A4 001:705 JLINK_IsHalted()  returns FALSE (0001ms, 0803ms total)
T29A4 001:708 JLINK_IsHalted()  returns FALSE (0001ms, 0803ms total)
T29A4 001:711 JLINK_IsHalted()  returns FALSE (0001ms, 0803ms total)
T29A4 001:717 JLINK_IsHalted()  returns FALSE (0001ms, 0803ms total)
T29A4 001:720 JLINK_IsHalted()  returns FALSE (0001ms, 0803ms total)
T29A4 001:723 JLINK_IsHalted()  returns FALSE (0001ms, 0803ms total)
T29A4 001:726 JLINK_IsHalted()  returns FALSE (0001ms, 0803ms total)
T29A4 001:732 JLINK_IsHalted()  returns FALSE (0001ms, 0803ms total)
T29A4 001:735 JLINK_IsHalted()  returns FALSE (0001ms, 0803ms total)
T29A4 001:737 JLINK_IsHalted()  returns FALSE (0001ms, 0803ms total)
T29A4 001:740 JLINK_IsHalted()  returns FALSE (0001ms, 0803ms total)
T29A4 001:743 JLINK_IsHalted()  returns FALSE (0001ms, 0803ms total)
T29A4 001:753 JLINK_IsHalted()  returns FALSE (0001ms, 0803ms total)
T29A4 001:756 JLINK_IsHalted()  returns FALSE (0001ms, 0803ms total)
T29A4 001:759 JLINK_IsHalted()  returns FALSE (0001ms, 0803ms total)
T29A4 001:771 JLINK_IsHalted()  returns FALSE (0001ms, 0803ms total)
T29A4 001:774 JLINK_IsHalted()  returns FALSE (0001ms, 0803ms total)
T29A4 001:784 JLINK_IsHalted()  returns FALSE (0001ms, 0803ms total)
T29A4 001:787 JLINK_IsHalted()  returns FALSE (0001ms, 0803ms total)
T29A4 001:790 JLINK_IsHalted()  returns FALSE (0001ms, 0803ms total)
T29A4 001:818 JLINK_IsHalted()  returns FALSE (0001ms, 0803ms total)
T29A4 001:821 JLINK_IsHalted()  returns FALSE (0001ms, 0803ms total)
T29A4 001:824 JLINK_IsHalted()  returns FALSE (0001ms, 0803ms total)
T29A4 001:829 JLINK_IsHalted()  returns FALSE (0001ms, 0803ms total)
T29A4 001:831 JLINK_IsHalted()  returns FALSE (0001ms, 0803ms total)
T29A4 001:834 JLINK_IsHalted()  returns FALSE (0001ms, 0803ms total)
T29A4 001:836 JLINK_IsHalted()  returns FALSE (0001ms, 0803ms total)
T29A4 001:839 JLINK_IsHalted()  returns FALSE (0001ms, 0803ms total)
T29A4 001:847 JLINK_IsHalted()  returns FALSE (0001ms, 0803ms total)
T29A4 001:850 JLINK_IsHalted()  returns FALSE (0001ms, 0803ms total)
T29A4 001:853 JLINK_IsHalted()  returns FALSE (0001ms, 0803ms total)
T29A4 001:862 JLINK_IsHalted()  returns FALSE (0001ms, 0803ms total)
T29A4 001:865 JLINK_IsHalted()  returns FALSE (0001ms, 0803ms total)
T29A4 001:868 JLINK_IsHalted()  returns FALSE (0001ms, 0803ms total)
T29A4 001:882 JLINK_IsHalted()  returns FALSE (0001ms, 0803ms total)
T29A4 001:885 JLINK_IsHalted()  returns FALSE (0001ms, 0803ms total)
T29A4 001:892 JLINK_IsHalted()  returns FALSE (0001ms, 0803ms total)
T29A4 001:895 JLINK_IsHalted()  returns FALSE (0001ms, 0803ms total)
T29A4 001:898 JLINK_IsHalted()  returns FALSE (0001ms, 0803ms total)
T29A4 001:901 JLINK_IsHalted()  returns FALSE (0001ms, 0803ms total)
T29A4 001:926 JLINK_IsHalted() -- CPU_ReadMem(2 bytes @ 0x20000000)  returns TRUE (0012ms, 0814ms total)
T29A4 001:938 JLINK_ReadReg(R15 (PC))  returns 0x20000000 (0000ms, 0802ms total)
T29A4 001:938 JLINK_ClrBPEx(BPHandle = 0x00000005)  returns 0x00 (0001ms, 0803ms total)
T29A4 001:939 JLINK_ReadReg(R0)  returns 0x00000000 (0000ms, 0803ms total)
T29A4 001:939 JLINK_WriteReg(R0, 0x08008000)  returns 0x00 (0000ms, 0803ms total)
T29A4 001:939 JLINK_WriteReg(R1, 0x00004000)  returns 0x00 (0000ms, 0803ms total)
T29A4 001:939 JLINK_WriteReg(R2, 0x000000FF)  returns 0x00 (0000ms, 0803ms total)
T29A4 001:939 JLINK_WriteReg(R3, 0x00000000)  returns 0x00 (0001ms, 0804ms total)
T29A4 001:940 JLINK_WriteReg(R4, 0x00000000)  returns 0x00 (0000ms, 0804ms total)
T29A4 001:940 JLINK_WriteReg(R5, 0x00000000)  returns 0x00 (0000ms, 0804ms total)
T29A4 001:940 JLINK_WriteReg(R6, 0x00000000)  returns 0x00 (0000ms, 0804ms total)
T29A4 001:940 JLINK_WriteReg(R7, 0x00000000)  returns 0x00 (0000ms, 0804ms total)
T29A4 001:940 JLINK_WriteReg(R8, 0x00000000)  returns 0x00 (0000ms, 0804ms total)
T29A4 001:940 JLINK_WriteReg(R9, 0x2000017C)  returns 0x00 (0000ms, 0804ms total)
T29A4 001:940 JLINK_WriteReg(R10, 0x00000000)  returns 0x00 (0000ms, 0804ms total)
T29A4 001:940 JLINK_WriteReg(R11, 0x00000000)  returns 0x00 (0000ms, 0804ms total)
T29A4 001:940 JLINK_WriteReg(R12, 0x00000000)  returns 0x00 (0000ms, 0804ms total)
T29A4 001:940 JLINK_WriteReg(R13 (SP), 0x20001000)  returns 0x00 (0000ms, 0804ms total)
T29A4 001:940 JLINK_WriteReg(R14, 0x20000001)  returns 0x00 (0000ms, 0804ms total)
T29A4 001:940 JLINK_WriteReg(R15 (PC), 0x20000020)  returns 0x00 (0000ms, 0804ms total)
T29A4 001:940 JLINK_WriteReg(XPSR, 0x01000000)  returns 0x00 (0000ms, 0804ms total)
T29A4 001:940 JLINK_WriteReg(MSP, 0x20001000)  returns 0x00 (0000ms, 0804ms total)
T29A4 001:940 JLINK_WriteReg(PSP, 0x20001000)  returns 0x00 (0000ms, 0804ms total)
T29A4 001:940 JLINK_WriteReg(CFBP, 0x00000000)  returns 0x00 (0000ms, 0804ms total)
T29A4 001:940 JLINK_SetBPEx(Addr = 0x20000000, Type = 0xFFFFFFF2)  returns 0x00000006 (0000ms, 0804ms total)
T29A4 001:940 JLINK_Go() (0006ms, 0810ms total)
T29A4 001:946 JLINK_IsHalted() -- CPU_ReadMem(2 bytes @ 0x20000000)  returns TRUE (0012ms, 0822ms total)
T29A4 001:958 JLINK_ReadReg(R15 (PC))  returns 0x20000000 (0000ms, 0810ms total)
T29A4 001:958 JLINK_ClrBPEx(BPHandle = 0x00000006)  returns 0x00 (0000ms, 0810ms total)
T29A4 001:958 JLINK_ReadReg(R0)  returns 0x00000001 (0001ms, 0811ms total)
T29A4 001:959 JLINK_WriteReg(R0, 0x08008000)  returns 0x00 (0000ms, 0811ms total)
T29A4 001:959 JLINK_WriteReg(R1, 0x00004000)  returns 0x00 (0000ms, 0811ms total)
T29A4 001:959 JLINK_WriteReg(R2, 0x000000FF)  returns 0x00 (0000ms, 0811ms total)
T29A4 001:959 JLINK_WriteReg(R3, 0x00000000)  returns 0x00 (0000ms, 0811ms total)
T29A4 001:959 JLINK_WriteReg(R4, 0x00000000)  returns 0x00 (0000ms, 0811ms total)
T29A4 001:959 JLINK_WriteReg(R5, 0x00000000)  returns 0x00 (0000ms, 0811ms total)
T29A4 001:959 JLINK_WriteReg(R6, 0x00000000)  returns 0x00 (0000ms, 0811ms total)
T29A4 001:959 JLINK_WriteReg(R7, 0x00000000)  returns 0x00 (0000ms, 0811ms total)
T29A4 001:959 JLINK_WriteReg(R8, 0x00000000)  returns 0x00 (0000ms, 0811ms total)
T29A4 001:959 JLINK_WriteReg(R9, 0x2000017C)  returns 0x00 (0000ms, 0811ms total)
T29A4 001:959 JLINK_WriteReg(R10, 0x00000000)  returns 0x00 (0000ms, 0811ms total)
T29A4 001:959 JLINK_WriteReg(R11, 0x00000000)  returns 0x00 (0000ms, 0811ms total)
T29A4 001:959 JLINK_WriteReg(R12, 0x00000000)  returns 0x00 (0000ms, 0811ms total)
T29A4 001:959 JLINK_WriteReg(R13 (SP), 0x20001000)  returns 0x00 (0001ms, 0812ms total)
T29A4 001:960 JLINK_WriteReg(R14, 0x20000001)  returns 0x00 (0000ms, 0812ms total)
T29A4 001:960 JLINK_WriteReg(R15 (PC), 0x200000BC)  returns 0x00 (0000ms, 0812ms total)
T29A4 001:960 JLINK_WriteReg(XPSR, 0x01000000)  returns 0x00 (0000ms, 0812ms total)
T29A4 001:960 JLINK_WriteReg(MSP, 0x20001000)  returns 0x00 (0000ms, 0812ms total)
T29A4 001:960 JLINK_WriteReg(PSP, 0x20001000)  returns 0x00 (0000ms, 0812ms total)
T29A4 001:960 JLINK_WriteReg(CFBP, 0x00000000)  returns 0x00 (0000ms, 0812ms total)
T29A4 001:960 JLINK_SetBPEx(Addr = 0x20000000, Type = 0xFFFFFFF2)  returns 0x00000007 (0000ms, 0812ms total)
T29A4 001:960 JLINK_Go() (0004ms, 0816ms total)
T29A4 001:964 JLINK_IsHalted()  returns FALSE (0001ms, 0817ms total)
T29A4 001:977 JLINK_IsHalted()  returns FALSE (0001ms, 0817ms total)
T29A4 001:987 JLINK_IsHalted()  returns FALSE (0001ms, 0817ms total)
T29A4 001:990 JLINK_IsHalted()  returns FALSE (0001ms, 0817ms total)
T29A4 001:993 JLINK_IsHalted()  returns FALSE (0001ms, 0817ms total)
T29A4 002:001 JLINK_IsHalted()  returns FALSE (0001ms, 0817ms total)
T29A4 002:004 JLINK_IsHalted()  returns FALSE (0001ms, 0817ms total)
T29A4 002:007 JLINK_IsHalted()  returns FALSE (0001ms, 0817ms total)
T29A4 002:010 JLINK_IsHalted()  returns FALSE (0001ms, 0817ms total)
T29A4 002:026 JLINK_IsHalted()  returns FALSE (0001ms, 0817ms total)
T29A4 002:033 JLINK_IsHalted()  returns FALSE (0001ms, 0817ms total)
T29A4 002:036 JLINK_IsHalted()  returns FALSE (0001ms, 0817ms total)
T29A4 002:038 JLINK_IsHalted()  returns FALSE (0001ms, 0817ms total)
T29A4 002:041 JLINK_IsHalted()  returns FALSE (0001ms, 0817ms total)
T29A4 002:046 JLINK_IsHalted()  returns FALSE (0001ms, 0817ms total)
T29A4 002:049 JLINK_IsHalted()  returns FALSE (0001ms, 0817ms total)
T29A4 002:052 JLINK_IsHalted()  returns FALSE (0001ms, 0817ms total)
T29A4 002:055 JLINK_IsHalted()  returns FALSE (0001ms, 0817ms total)
T29A4 002:062 JLINK_IsHalted()  returns FALSE (0001ms, 0817ms total)
T29A4 002:065 JLINK_IsHalted()  returns FALSE (0001ms, 0817ms total)
T29A4 002:068 JLINK_IsHalted()  returns FALSE (0001ms, 0817ms total)
T29A4 002:071 JLINK_IsHalted()  returns FALSE (0001ms, 0817ms total)
T29A4 002:083 JLINK_IsHalted()  returns FALSE (0001ms, 0817ms total)
T29A4 002:086 JLINK_IsHalted()  returns FALSE (0001ms, 0817ms total)
T29A4 002:097 JLINK_IsHalted()  returns FALSE (0001ms, 0817ms total)
T29A4 002:100 JLINK_IsHalted()  returns FALSE (0001ms, 0817ms total)
T29A4 002:103 JLINK_IsHalted()  returns FALSE (0001ms, 0817ms total)
T29A4 002:113 JLINK_IsHalted()  returns FALSE (0001ms, 0817ms total)
T29A4 002:116 JLINK_IsHalted()  returns FALSE (0001ms, 0817ms total)
T29A4 002:119 JLINK_IsHalted()  returns FALSE (0001ms, 0817ms total)
T29A4 002:141 JLINK_IsHalted()  returns FALSE (0001ms, 0817ms total)
T29A4 002:144 JLINK_IsHalted()  returns FALSE (0001ms, 0817ms total)
T29A4 002:147 JLINK_IsHalted()  returns FALSE (0001ms, 0817ms total)
T29A4 002:150 JLINK_IsHalted()  returns FALSE (0001ms, 0817ms total)
T29A4 002:155 JLINK_IsHalted()  returns FALSE (0001ms, 0817ms total)
T29A4 002:158 JLINK_IsHalted()  returns FALSE (0001ms, 0817ms total)
T29A4 002:161 JLINK_IsHalted()  returns FALSE (0001ms, 0817ms total)
T29A4 002:164 JLINK_IsHalted()  returns FALSE (0001ms, 0817ms total)
T29A4 002:171 JLINK_IsHalted()  returns FALSE (0001ms, 0817ms total)
T29A4 002:174 JLINK_IsHalted()  returns FALSE (0001ms, 0817ms total)
T29A4 002:177 JLINK_IsHalted()  returns FALSE (0001ms, 0817ms total)
T29A4 002:180 JLINK_IsHalted()  returns FALSE (0001ms, 0817ms total)
T29A4 002:188 JLINK_IsHalted()  returns FALSE (0001ms, 0817ms total)
T29A4 002:191 JLINK_IsHalted()  returns FALSE (0001ms, 0817ms total)
T29A4 002:194 JLINK_IsHalted()  returns FALSE (0001ms, 0817ms total)
T29A4 002:205 JLINK_IsHalted()  returns FALSE (0001ms, 0817ms total)
T29A4 002:208 JLINK_IsHalted()  returns FALSE (0001ms, 0817ms total)
T29A4 002:211 JLINK_IsHalted()  returns FALSE (0001ms, 0817ms total)
T29A4 002:214 JLINK_IsHalted()  returns FALSE (0001ms, 0817ms total)
T29A4 002:222 JLINK_IsHalted()  returns FALSE (0001ms, 0817ms total)
T29A4 002:225 JLINK_IsHalted()  returns FALSE (0001ms, 0817ms total)
T29A4 002:228 JLINK_IsHalted()  returns FALSE (0001ms, 0817ms total)
T29A4 002:241 JLINK_IsHalted()  returns FALSE (0001ms, 0817ms total)
T29A4 002:244 JLINK_IsHalted()  returns FALSE (0001ms, 0817ms total)
T29A4 002:253 JLINK_IsHalted()  returns FALSE (0001ms, 0817ms total)
T29A4 002:256 JLINK_IsHalted()  returns FALSE (0001ms, 0817ms total)
T29A4 002:259 JLINK_IsHalted()  returns FALSE (0001ms, 0817ms total)
T29A4 002:264 JLINK_IsHalted()  returns FALSE (0001ms, 0817ms total)
T29A4 002:267 JLINK_IsHalted()  returns FALSE (0001ms, 0817ms total)
T29A4 002:270 JLINK_IsHalted()  returns FALSE (0001ms, 0817ms total)
T29A4 002:273 JLINK_IsHalted()  returns FALSE (0001ms, 0817ms total)
T29A4 002:281 JLINK_IsHalted() -- CPU_ReadMem(2 bytes @ 0x20000000)  returns TRUE (0012ms, 0828ms total)
T29A4 002:293 JLINK_ReadReg(R15 (PC))  returns 0x20000000 (0000ms, 0816ms total)
T29A4 002:293 JLINK_ClrBPEx(BPHandle = 0x00000007)  returns 0x00 (0000ms, 0816ms total)
T29A4 002:293 JLINK_ReadReg(R0)  returns 0x00000000 (0000ms, 0816ms total)
T29A4 002:294 JLINK_WriteReg(R0, 0x00000001)  returns 0x00 (0000ms, 0816ms total)
T29A4 002:294 JLINK_WriteReg(R1, 0x00004000)  returns 0x00 (0000ms, 0816ms total)
T29A4 002:294 JLINK_WriteReg(R2, 0x000000FF)  returns 0x00 (0000ms, 0816ms total)
T29A4 002:294 JLINK_WriteReg(R3, 0x00000000)  returns 0x00 (0000ms, 0816ms total)
T29A4 002:294 JLINK_WriteReg(R4, 0x00000000)  returns 0x00 (0000ms, 0816ms total)
T29A4 002:294 JLINK_WriteReg(R5, 0x00000000)  returns 0x00 (0000ms, 0816ms total)
T29A4 002:294 JLINK_WriteReg(R6, 0x00000000)  returns 0x00 (0000ms, 0816ms total)
T29A4 002:294 JLINK_WriteReg(R7, 0x00000000)  returns 0x00 (0000ms, 0816ms total)
T29A4 002:294 JLINK_WriteReg(R8, 0x00000000)  returns 0x00 (0000ms, 0816ms total)
T29A4 002:294 JLINK_WriteReg(R9, 0x2000017C)  returns 0x00 (0000ms, 0816ms total)
T29A4 002:294 JLINK_WriteReg(R10, 0x00000000)  returns 0x00 (0000ms, 0816ms total)
T29A4 002:294 JLINK_WriteReg(R11, 0x00000000)  returns 0x00 (0001ms, 0817ms total)
T29A4 002:295 JLINK_WriteReg(R12, 0x00000000)  returns 0x00 (0000ms, 0817ms total)
T29A4 002:295 JLINK_WriteReg(R13 (SP), 0x20001000)  returns 0x00 (0000ms, 0817ms total)
T29A4 002:295 JLINK_WriteReg(R14, 0x20000001)  returns 0x00 (0000ms, 0817ms total)
T29A4 002:295 JLINK_WriteReg(R15 (PC), 0x20000082)  returns 0x00 (0000ms, 0817ms total)
T29A4 002:295 JLINK_WriteReg(XPSR, 0x01000000)  returns 0x00 (0000ms, 0817ms total)
T29A4 002:295 JLINK_WriteReg(MSP, 0x20001000)  returns 0x00 (0000ms, 0817ms total)
T29A4 002:295 JLINK_WriteReg(PSP, 0x20001000)  returns 0x00 (0000ms, 0817ms total)
T29A4 002:295 JLINK_WriteReg(CFBP, 0x00000000)  returns 0x00 (0000ms, 0817ms total)
T29A4 002:295 JLINK_SetBPEx(Addr = 0x20000000, Type = 0xFFFFFFF2)  returns 0x00000008 (0000ms, 0817ms total)
T29A4 002:295 JLINK_Go() (0005ms, 0822ms total)
T29A4 002:300 JLINK_IsHalted() -- CPU_ReadMem(2 bytes @ 0x20000000)  returns TRUE (0013ms, 0835ms total)
T29A4 002:313 JLINK_ReadReg(R15 (PC))  returns 0x20000000 (0000ms, 0822ms total)
T29A4 002:313 JLINK_ClrBPEx(BPHandle = 0x00000008)  returns 0x00 (0000ms, 0822ms total)
T29A4 002:313 JLINK_ReadReg(R0)  returns 0x00000000 (0000ms, 0822ms total)
T29A4 002:373 JLINK_WriteMem(0x20000000, 0x0180 Bytes, ...) - Data: 00 BE 0A E0 0D 78 2D 06 68 40 08 24 40 00 00 D3 ... -- CPU_WriteMem(384 bytes @ 0x20000000)  returns 0x180 (0019ms, 0841ms total)
T29A4 002:392 JLINK_WriteReg(R0, 0x08000000)  returns 0x00 (0000ms, 0841ms total)
T29A4 002:392 JLINK_WriteReg(R1, 0x00B71B00)  returns 0x00 (0000ms, 0841ms total)
T29A4 002:392 JLINK_WriteReg(R2, 0x00000002)  returns 0x00 (0000ms, 0841ms total)
T29A4 002:392 JLINK_WriteReg(R3, 0x00000000)  returns 0x00 (0000ms, 0841ms total)
T29A4 002:392 JLINK_WriteReg(R4, 0x00000000)  returns 0x00 (0000ms, 0841ms total)
T29A4 002:392 JLINK_WriteReg(R5, 0x00000000)  returns 0x00 (0000ms, 0841ms total)
T29A4 002:392 JLINK_WriteReg(R6, 0x00000000)  returns 0x00 (0000ms, 0841ms total)
T29A4 002:392 JLINK_WriteReg(R7, 0x00000000)  returns 0x00 (0000ms, 0841ms total)
T29A4 002:392 JLINK_WriteReg(R8, 0x00000000)  returns 0x00 (0000ms, 0841ms total)
T29A4 002:392 JLINK_WriteReg(R9, 0x2000017C)  returns 0x00 (0001ms, 0842ms total)
T29A4 002:393 JLINK_WriteReg(R10, 0x00000000)  returns 0x00 (0000ms, 0842ms total)
T29A4 002:393 JLINK_WriteReg(R11, 0x00000000)  returns 0x00 (0000ms, 0842ms total)
T29A4 002:393 JLINK_WriteReg(R12, 0x00000000)  returns 0x00 (0000ms, 0842ms total)
T29A4 002:393 JLINK_WriteReg(R13 (SP), 0x20001000)  returns 0x00 (0000ms, 0842ms total)
T29A4 002:393 JLINK_WriteReg(R14, 0x20000001)  returns 0x00 (0000ms, 0842ms total)
T29A4 002:393 JLINK_WriteReg(R15 (PC), 0x20000054)  returns 0x00 (0000ms, 0842ms total)
T29A4 002:393 JLINK_WriteReg(XPSR, 0x01000000)  returns 0x00 (0000ms, 0842ms total)
T29A4 002:393 JLINK_WriteReg(MSP, 0x20001000)  returns 0x00 (0000ms, 0842ms total)
T29A4 002:393 JLINK_WriteReg(PSP, 0x20001000)  returns 0x00 (0000ms, 0842ms total)
T29A4 002:393 JLINK_WriteReg(CFBP, 0x00000000)  returns 0x00 (0000ms, 0842ms total)
T29A4 002:393 JLINK_SetBPEx(Addr = 0x20000000, Type = 0xFFFFFFF2) -- CPU_ReadMem(2 bytes @ 0x20000000)  returns 0x00000009 (0002ms, 0844ms total)
T29A4 002:395 JLINK_Go() -- CPU_WriteMem(2 bytes @ 0x20000000) (0006ms, 0850ms total)
T29A4 002:401 JLINK_IsHalted() -- CPU_ReadMem(2 bytes @ 0x20000000)  returns TRUE (0012ms, 0862ms total)
T29A4 002:413 JLINK_ReadReg(R15 (PC))  returns 0x20000000 (0000ms, 0850ms total)
T29A4 002:413 JLINK_ClrBPEx(BPHandle = 0x00000009)  returns 0x00 (0000ms, 0850ms total)
T29A4 002:413 JLINK_ReadReg(R0)  returns 0x00000000 (0000ms, 0850ms total)
T29A4 002:413 JLINK_WriteMem(0x20000180, 0x0400 Bytes, ...) - Data: C8 FD 01 20 D5 83 00 08 99 05 00 08 9B 05 00 08 ... -- CPU_WriteMem(1024 bytes @ 0x20000180)  returns 0x400 (0046ms, 0896ms total)
T29A4 002:459 JLINK_WriteReg(R0, 0x08000000)  returns 0x00 (0000ms, 0896ms total)
T29A4 002:459 JLINK_WriteReg(R1, 0x00000400)  returns 0x00 (0000ms, 0896ms total)
T29A4 002:459 JLINK_WriteReg(R2, 0x20000180)  returns 0x00 (0000ms, 0896ms total)
T29A4 002:459 JLINK_WriteReg(R3, 0x00000000)  returns 0x00 (0000ms, 0896ms total)
T29A4 002:460 JLINK_WriteReg(R4, 0x00000000)  returns 0x00 (0000ms, 0897ms total)
T29A4 002:460 JLINK_WriteReg(R5, 0x00000000)  returns 0x00 (0000ms, 0897ms total)
T29A4 002:460 JLINK_WriteReg(R6, 0x00000000)  returns 0x00 (0000ms, 0897ms total)
T29A4 002:460 JLINK_WriteReg(R7, 0x00000000)  returns 0x00 (0000ms, 0897ms total)
T29A4 002:460 JLINK_WriteReg(R8, 0x00000000)  returns 0x00 (0000ms, 0897ms total)
T29A4 002:460 JLINK_WriteReg(R9, 0x2000017C)  returns 0x00 (0000ms, 0897ms total)
T29A4 002:460 JLINK_WriteReg(R10, 0x00000000)  returns 0x00 (0000ms, 0897ms total)
T29A4 002:460 JLINK_WriteReg(R11, 0x00000000)  returns 0x00 (0000ms, 0897ms total)
T29A4 002:460 JLINK_WriteReg(R12, 0x00000000)  returns 0x00 (0000ms, 0897ms total)
T29A4 002:460 JLINK_WriteReg(R13 (SP), 0x20001000)  returns 0x00 (0000ms, 0897ms total)
T29A4 002:460 JLINK_WriteReg(R14, 0x20000001)  returns 0x00 (0000ms, 0897ms total)
T29A4 002:460 JLINK_WriteReg(R15 (PC), 0x20000108)  returns 0x00 (0000ms, 0897ms total)
T29A4 002:460 JLINK_WriteReg(XPSR, 0x01000000)  returns 0x00 (0000ms, 0897ms total)
T29A4 002:460 JLINK_WriteReg(MSP, 0x20001000)  returns 0x00 (0000ms, 0897ms total)
T29A4 002:460 JLINK_WriteReg(PSP, 0x20001000)  returns 0x00 (0000ms, 0897ms total)
T29A4 002:460 JLINK_WriteReg(CFBP, 0x00000000)  returns 0x00 (0000ms, 0897ms total)
T29A4 002:460 JLINK_SetBPEx(Addr = 0x20000000, Type = 0xFFFFFFF2)  returns 0x0000000A (0000ms, 0897ms total)
T29A4 002:460 JLINK_Go() (0005ms, 0902ms total)
T29A4 002:465 JLINK_IsHalted()  returns FALSE (0001ms, 0903ms total)
T29A4 002:520 JLINK_IsHalted() -- CPU_ReadMem(2 bytes @ 0x20000000)  returns TRUE (0012ms, 0914ms total)
T29A4 002:532 JLINK_ReadReg(R15 (PC))  returns 0x20000000 (0000ms, 0902ms total)
T29A4 002:532 JLINK_ClrBPEx(BPHandle = 0x0000000A)  returns 0x00 (0000ms, 0902ms total)
T29A4 002:532 JLINK_ReadReg(R0)  returns 0x00000000 (0000ms, 0902ms total)
T29A4 002:532 JLINK_WriteMem(0x20000180, 0x0400 Bytes, ...) - Data: 00 68 01 28 04 D1 5C 48 00 68 00 F0 5D FF 03 E0 ... -- CPU_WriteMem(1024 bytes @ 0x20000180)  returns 0x400 (0046ms, 0948ms total)
T29A4 002:578 JLINK_WriteReg(R0, 0x08000400)  returns 0x00 (0000ms, 0948ms total)
T29A4 002:578 JLINK_WriteReg(R1, 0x00000400)  returns 0x00 (0000ms, 0948ms total)
T29A4 002:578 JLINK_WriteReg(R2, 0x20000180)  returns 0x00 (0001ms, 0949ms total)
T29A4 002:579 JLINK_WriteReg(R3, 0x00000000)  returns 0x00 (0000ms, 0949ms total)
T29A4 002:579 JLINK_WriteReg(R4, 0x00000000)  returns 0x00 (0000ms, 0949ms total)
T29A4 002:579 JLINK_WriteReg(R5, 0x00000000)  returns 0x00 (0000ms, 0949ms total)
T29A4 002:579 JLINK_WriteReg(R6, 0x00000000)  returns 0x00 (0000ms, 0949ms total)
T29A4 002:579 JLINK_WriteReg(R7, 0x00000000)  returns 0x00 (0000ms, 0949ms total)
T29A4 002:579 JLINK_WriteReg(R8, 0x00000000)  returns 0x00 (0000ms, 0949ms total)
T29A4 002:579 JLINK_WriteReg(R9, 0x2000017C)  returns 0x00 (0000ms, 0949ms total)
T29A4 002:579 JLINK_WriteReg(R10, 0x00000000)  returns 0x00 (0000ms, 0949ms total)
T29A4 002:579 JLINK_WriteReg(R11, 0x00000000)  returns 0x00 (0000ms, 0949ms total)
T29A4 002:579 JLINK_WriteReg(R12, 0x00000000)  returns 0x00 (0000ms, 0949ms total)
T29A4 002:579 JLINK_WriteReg(R13 (SP), 0x20001000)  returns 0x00 (0000ms, 0949ms total)
T29A4 002:579 JLINK_WriteReg(R14, 0x20000001)  returns 0x00 (0000ms, 0949ms total)
T29A4 002:579 JLINK_WriteReg(R15 (PC), 0x20000108)  returns 0x00 (0000ms, 0949ms total)
T29A4 002:579 JLINK_WriteReg(XPSR, 0x01000000)  returns 0x00 (0000ms, 0949ms total)
T29A4 002:579 JLINK_WriteReg(MSP, 0x20001000)  returns 0x00 (0001ms, 0950ms total)
T29A4 002:580 JLINK_WriteReg(PSP, 0x20001000)  returns 0x00 (0000ms, 0950ms total)
T29A4 002:580 JLINK_WriteReg(CFBP, 0x00000000)  returns 0x00 (0000ms, 0950ms total)
T29A4 002:580 JLINK_SetBPEx(Addr = 0x20000000, Type = 0xFFFFFFF2)  returns 0x0000000B (0000ms, 0950ms total)
T29A4 002:580 JLINK_Go() (0005ms, 0955ms total)
T29A4 002:585 JLINK_IsHalted()  returns FALSE (0001ms, 0956ms total)
T29A4 002:628 JLINK_IsHalted() -- CPU_ReadMem(2 bytes @ 0x20000000)  returns TRUE (0012ms, 0967ms total)
T29A4 002:640 JLINK_ReadReg(R15 (PC))  returns 0x20000000 (0000ms, 0955ms total)
T29A4 002:640 JLINK_ClrBPEx(BPHandle = 0x0000000B)  returns 0x00 (0000ms, 0955ms total)
T29A4 002:640 JLINK_ReadReg(R0)  returns 0x00000000 (0000ms, 0955ms total)
T29A4 002:641 JLINK_WriteMem(0x20000180, 0x0400 Bytes, ...) - Data: AD F8 0A 00 AD F8 0C 00 68 46 06 F0 2D FF 1F BD ... -- CPU_WriteMem(1024 bytes @ 0x20000180)  returns 0x400 (0045ms, 1000ms total)
T29A4 002:687 JLINK_WriteReg(R0, 0x08000800)  returns 0x00 (0000ms, 1001ms total)
T29A4 002:687 JLINK_WriteReg(R1, 0x00000400)  returns 0x00 (0000ms, 1001ms total)
T29A4 002:687 JLINK_WriteReg(R2, 0x20000180)  returns 0x00 (0000ms, 1001ms total)
T29A4 002:687 JLINK_WriteReg(R3, 0x00000000)  returns 0x00 (0000ms, 1001ms total)
T29A4 002:687 JLINK_WriteReg(R4, 0x00000000)  returns 0x00 (0000ms, 1001ms total)
T29A4 002:687 JLINK_WriteReg(R5, 0x00000000)  returns 0x00 (0000ms, 1001ms total)
T29A4 002:687 JLINK_WriteReg(R6, 0x00000000)  returns 0x00 (0000ms, 1001ms total)
T29A4 002:687 JLINK_WriteReg(R7, 0x00000000)  returns 0x00 (0000ms, 1001ms total)
T29A4 002:687 JLINK_WriteReg(R8, 0x00000000)  returns 0x00 (0000ms, 1001ms total)
T29A4 002:687 JLINK_WriteReg(R9, 0x2000017C)  returns 0x00 (0000ms, 1001ms total)
T29A4 002:687 JLINK_WriteReg(R10, 0x00000000)  returns 0x00 (0000ms, 1001ms total)
T29A4 002:687 JLINK_WriteReg(R11, 0x00000000)  returns 0x00 (0000ms, 1001ms total)
T29A4 002:687 JLINK_WriteReg(R12, 0x00000000)  returns 0x00 (0000ms, 1001ms total)
T29A4 002:687 JLINK_WriteReg(R13 (SP), 0x20001000)  returns 0x00 (0000ms, 1001ms total)
T29A4 002:687 JLINK_WriteReg(R14, 0x20000001)  returns 0x00 (0000ms, 1001ms total)
T29A4 002:687 JLINK_WriteReg(R15 (PC), 0x20000108)  returns 0x00 (0000ms, 1001ms total)
T29A4 002:687 JLINK_WriteReg(XPSR, 0x01000000)  returns 0x00 (0000ms, 1001ms total)
T29A4 002:687 JLINK_WriteReg(MSP, 0x20001000)  returns 0x00 (0000ms, 1001ms total)
T29A4 002:687 JLINK_WriteReg(PSP, 0x20001000)  returns 0x00 (0000ms, 1001ms total)
T29A4 002:687 JLINK_WriteReg(CFBP, 0x00000000)  returns 0x00 (0000ms, 1001ms total)
T29A4 002:687 JLINK_SetBPEx(Addr = 0x20000000, Type = 0xFFFFFFF2)  returns 0x0000000C (0001ms, 1002ms total)
T29A4 002:688 JLINK_Go() (0005ms, 1007ms total)
T29A4 002:693 JLINK_IsHalted()  returns FALSE (0001ms, 1008ms total)
T29A4 002:738 JLINK_IsHalted() -- CPU_ReadMem(2 bytes @ 0x20000000)  returns TRUE (0012ms, 1019ms total)
T29A4 002:750 JLINK_ReadReg(R15 (PC))  returns 0x20000000 (0001ms, 1008ms total)
T29A4 002:751 JLINK_ClrBPEx(BPHandle = 0x0000000C)  returns 0x00 (0000ms, 1008ms total)
T29A4 002:751 JLINK_ReadReg(R0)  returns 0x00000000 (0000ms, 1008ms total)
T29A4 002:751 JLINK_WriteMem(0x20000180, 0x0400 Bytes, ...) - Data: 00 60 55 49 1A 31 08 80 50 06 02 0E FF F7 26 FF ... -- CPU_WriteMem(1024 bytes @ 0x20000180)  returns 0x400 (0046ms, 1054ms total)
T29A4 002:797 JLINK_WriteReg(R0, 0x08000C00)  returns 0x00 (0000ms, 1054ms total)
T29A4 002:797 JLINK_WriteReg(R1, 0x00000400)  returns 0x00 (0000ms, 1054ms total)
T29A4 002:797 JLINK_WriteReg(R2, 0x20000180)  returns 0x00 (0000ms, 1054ms total)
T29A4 002:797 JLINK_WriteReg(R3, 0x00000000)  returns 0x00 (0001ms, 1055ms total)
T29A4 002:798 JLINK_WriteReg(R4, 0x00000000)  returns 0x00 (0000ms, 1055ms total)
T29A4 002:798 JLINK_WriteReg(R5, 0x00000000)  returns 0x00 (0000ms, 1055ms total)
T29A4 002:798 JLINK_WriteReg(R6, 0x00000000)  returns 0x00 (0000ms, 1055ms total)
T29A4 002:798 JLINK_WriteReg(R7, 0x00000000)  returns 0x00 (0000ms, 1055ms total)
T29A4 002:798 JLINK_WriteReg(R8, 0x00000000)  returns 0x00 (0000ms, 1055ms total)
T29A4 002:798 JLINK_WriteReg(R9, 0x2000017C)  returns 0x00 (0000ms, 1055ms total)
T29A4 002:798 JLINK_WriteReg(R10, 0x00000000)  returns 0x00 (0000ms, 1055ms total)
T29A4 002:798 JLINK_WriteReg(R11, 0x00000000)  returns 0x00 (0000ms, 1055ms total)
T29A4 002:798 JLINK_WriteReg(R12, 0x00000000)  returns 0x00 (0000ms, 1055ms total)
T29A4 002:798 JLINK_WriteReg(R13 (SP), 0x20001000)  returns 0x00 (0000ms, 1055ms total)
T29A4 002:798 JLINK_WriteReg(R14, 0x20000001)  returns 0x00 (0000ms, 1055ms total)
T29A4 002:798 JLINK_WriteReg(R15 (PC), 0x20000108)  returns 0x00 (0000ms, 1055ms total)
T29A4 002:798 JLINK_WriteReg(XPSR, 0x01000000)  returns 0x00 (0000ms, 1055ms total)
T29A4 002:798 JLINK_WriteReg(MSP, 0x20001000)  returns 0x00 (0001ms, 1056ms total)
T29A4 002:799 JLINK_WriteReg(PSP, 0x20001000)  returns 0x00 (0000ms, 1056ms total)
T29A4 002:799 JLINK_WriteReg(CFBP, 0x00000000)  returns 0x00 (0000ms, 1056ms total)
T29A4 002:799 JLINK_SetBPEx(Addr = 0x20000000, Type = 0xFFFFFFF2)  returns 0x0000000D (0000ms, 1056ms total)
T29A4 002:799 JLINK_Go() (0005ms, 1061ms total)
T29A4 002:804 JLINK_IsHalted()  returns FALSE (0001ms, 1062ms total)
T29A4 002:855 JLINK_IsHalted() -- CPU_ReadMem(2 bytes @ 0x20000000)  returns TRUE (0012ms, 1073ms total)
T29A4 002:867 JLINK_ReadReg(R15 (PC))  returns 0x20000000 (0000ms, 1061ms total)
T29A4 002:867 JLINK_ClrBPEx(BPHandle = 0x0000000D)  returns 0x00 (0000ms, 1061ms total)
T29A4 002:867 JLINK_ReadReg(R0)  returns 0x00000000 (0000ms, 1061ms total)
T29A4 002:868 JLINK_WriteMem(0x20000180, 0x0400 Bytes, ...) - Data: 35 A9 51 F8 20 00 30 B1 AA F1 01 00 51 F8 20 B0 ... -- CPU_WriteMem(1024 bytes @ 0x20000180)  returns 0x400 (0046ms, 1107ms total)
T29A4 002:914 JLINK_WriteReg(R0, 0x08001000)  returns 0x00 (0000ms, 1107ms total)
T29A4 002:914 JLINK_WriteReg(R1, 0x00000400)  returns 0x00 (0000ms, 1107ms total)
T29A4 002:914 JLINK_WriteReg(R2, 0x20000180)  returns 0x00 (0000ms, 1107ms total)
T29A4 002:914 JLINK_WriteReg(R3, 0x00000000)  returns 0x00 (0000ms, 1107ms total)
T29A4 002:914 JLINK_WriteReg(R4, 0x00000000)  returns 0x00 (0000ms, 1107ms total)
T29A4 002:914 JLINK_WriteReg(R5, 0x00000000)  returns 0x00 (0000ms, 1107ms total)
T29A4 002:914 JLINK_WriteReg(R6, 0x00000000)  returns 0x00 (0000ms, 1107ms total)
T29A4 002:914 JLINK_WriteReg(R7, 0x00000000)  returns 0x00 (0000ms, 1107ms total)
T29A4 002:914 JLINK_WriteReg(R8, 0x00000000)  returns 0x00 (0000ms, 1107ms total)
T29A4 002:914 JLINK_WriteReg(R9, 0x2000017C)  returns 0x00 (0000ms, 1107ms total)
T29A4 002:914 JLINK_WriteReg(R10, 0x00000000)  returns 0x00 (0000ms, 1107ms total)
T29A4 002:914 JLINK_WriteReg(R11, 0x00000000)  returns 0x00 (0000ms, 1107ms total)
T29A4 002:914 JLINK_WriteReg(R12, 0x00000000)  returns 0x00 (0000ms, 1107ms total)
